T41B8 000:005.350   SEGGER J-Link V6.56 Log File
T41B8 000:005.455   DLL Compiled: Nov 22 2019 17:07:10
T41B8 000:005.461   Logging started @ 2023-12-19 13:27
T41B8 000:005.468 JLINK_SetWarnOutHandler(...)
T41B8 000:005.475 - 0.009ms
T41B8 000:005.483 JLINK_OpenEx(...)
T41B8 000:007.037   Firmware: J-Link V11 compiled Jan  4 2021 16:16:18
T41B8 000:018.417   Hardware: V11.00
T41B8 000:018.439   S/N: 50120677
T41B8 000:018.449   OEM: SEGGER
T41B8 000:018.458   Feature(s): GDB, JFlash, FlashDL, RDI, FlashBP
T41B8 000:020.281   TELNET listener socket opened on port 19021
T41B8 000:047.827   WEBSRV Starting webserver
T41B8 000:048.077   WEBSRV Webserver running on local port 19080
T41B8 000:048.109 - 42.629ms returns "O.K."
T41B8 000:048.129 JLINK_GetEmuCaps()
T41B8 000:048.136 - 0.009ms returns 0xB9FF7BBF
T41B8 000:048.148 JLINK_TIF_GetAvailable(...)
T41B8 000:048.415 - 0.279ms
T41B8 000:048.438 JLINK_SetErrorOutHandler(...)
T41B8 000:048.444 - 0.008ms
T41B8 000:048.468 JLINK_ExecCommand("ProjectFile = "E:\work\LoRa Module\RoomCTRL\RoomCtrl\org\JLinkSettings.ini"", ...). 
T41B8 000:050.773   Ref file found at: E:\Software\MDK5.27\ARM\Segger\JLinkDevices.ref
T41B8 000:050.909   XML referenced by ref file: C:\Program Files (x86)\SEGGER\JLink\JLinkDevices.xml
T41B8 000:053.017   C:\Program Files (x86)\SEGGER\JLink\JLinkDevices.xml evaluated successfully.
T41B8 000:123.574   Device "CORTEX-M4" selected.
T41B8 000:124.022 - 75.569ms returns 0x00
T41B8 000:128.455 JLINK_ExecCommand("Device = ARMCM4_FP", ...). 
T41B8 000:132.189   Device "CORTEX-M4" selected.
T41B8 000:138.270 - 9.812ms returns 0x00
T41B8 000:138.304 JLINK_ExecCommand("DisableConnectionTimeout", ...). 
T41B8 000:138.317 - 0.007ms returns 0x01
T41B8 000:138.326 JLINK_GetHardwareVersion()
T41B8 000:138.337 - 0.014ms returns 0x1ADB0
T41B8 000:138.348 JLINK_GetDLLVersion()  returns 65600
T41B8 000:138.359 JLINK_GetFirmwareString(...)
T41B8 000:138.366 - 0.009ms
T41B8 000:149.243 JLINK_GetDLLVersion()  returns 65600
T41B8 000:149.260 JLINK_GetCompileDateTime()
T41B8 000:149.265 - 0.007ms
T41B8 000:152.838 JLINK_GetFirmwareString(...)
T41B8 000:152.863 - 0.028ms
T41B8 000:156.303 JLINK_GetHardwareVersion()
T41B8 000:156.315 - 0.014ms returns 0x1ADB0
T41B8 000:167.645 JLINK_TIF_Select(JLINKARM_TIF_SWD)
T41B8 000:168.385 - 0.744ms returns 0x00
T41B8 000:168.400 JLINK_SetSpeed(5000)
T41B8 000:168.534 - 0.136ms
T41B8 000:168.542 JLINK_GetId()
T41B8 000:172.537   Found SW-DP with ID 0x2BA01477
T41B8 000:178.455   Scanning AP map to find all available APs
T41B8 000:184.583   AP[1]: Stopped AP scan as end of AP map has been reached
T41B8 000:187.542   AP[0]: AHB-AP (IDR: 0x24770011)
T41B8 000:190.283   Iterating through AP map to find AHB-AP to use
T41B8 000:202.523   AP[0]: Core found
T41B8 000:204.789   AP[0]: AHB-AP ROM base: 0xE00FF000
T41B8 000:210.159   CPUID register: 0x410FC241. Implementer code: 0x41 (ARM)
T41B8 000:212.974   Found Cortex-M4 r0p1, Little endian.
T41B8 000:314.087    -- Max. mem block: 0x00004778
T41B8 000:314.115    -- CPU_ReadMem(4 bytes @ 0xE000EDF0)
T41B8 000:314.505    -- CPU_WriteMem(4 bytes @ 0xE000EDF0)
T41B8 000:314.817    -- CPU_ReadMem(4 bytes @ 0xE0002000)
T41B8 000:318.606   FPUnit: 6 code (BP) slots and 2 literal slots
T41B8 000:318.623    -- CPU_ReadMem(4 bytes @ 0xE000EDFC)
T41B8 000:318.925    -- CPU_WriteMem(4 bytes @ 0xE000EDFC)
T41B8 000:319.261    -- CPU_ReadMem(4 bytes @ 0xE0001000)
T41B8 000:319.562    -- CPU_WriteMem(4 bytes @ 0xE0001000)
T41B8 000:319.871    -- CPU_ReadMem(4 bytes @ 0xE000ED88)
T41B8 000:320.143    -- CPU_WriteMem(4 bytes @ 0xE000ED88)
T41B8 000:320.436    -- CPU_ReadMem(4 bytes @ 0xE000ED88)
T41B8 000:320.708    -- CPU_WriteMem(4 bytes @ 0xE000ED88)
T41B8 000:324.949   CoreSight components:
T41B8 000:328.978   ROMTbl[0] @ E00FF000
T41B8 000:328.993    -- CPU_ReadMem(16 bytes @ 0xE00FF000)
T41B8 000:329.362    -- CPU_ReadMem(16 bytes @ 0xE000EFF0)
T41B8 000:329.827    -- CPU_ReadMem(16 bytes @ 0xE000EFE0)
T41B8 000:332.794   ROMTbl[0][0]: E000E000, CID: B105E00D, PID: 000BB00C SCS-M7
T41B8 000:332.844    -- CPU_ReadMem(16 bytes @ 0xE0001FF0)
T41B8 000:333.165    -- CPU_ReadMem(16 bytes @ 0xE0001FE0)
T41B8 000:336.909   ROMTbl[0][1]: E0001000, CID: B105E00D, PID: 003BB002 DWT
T41B8 000:336.927    -- CPU_ReadMem(16 bytes @ 0xE0002FF0)
T41B8 000:337.236    -- CPU_ReadMem(16 bytes @ 0xE0002FE0)
T41B8 000:340.726   ROMTbl[0][2]: E0002000, CID: B105E00D, PID: 002BB003 FPB
T41B8 000:340.743    -- CPU_ReadMem(16 bytes @ 0xE0000FF0)
T41B8 000:341.088    -- CPU_ReadMem(16 bytes @ 0xE0000FE0)
T41B8 000:344.527   ROMTbl[0][3]: E0000000, CID: B105E00D, PID: 003BB001 ITM
T41B8 000:344.544    -- CPU_ReadMem(16 bytes @ 0xE00FF010)
T41B8 000:344.896    -- CPU_ReadMem(16 bytes @ 0xE0040FF0)
T41B8 000:345.245    -- CPU_ReadMem(16 bytes @ 0xE0040FE0)
T41B8 000:348.745   ROMTbl[0][4]: E0040000, CID: B105900D, PID: 000BB9A1 TPIU
T41B8 000:349.216 - 180.683ms   returns 0x2BA01477
T41B8 000:349.238 JLINK_GetDLLVersion()  returns 65600
T41B8 000:349.276 JLINK_CORE_GetFound()
T41B8 000:349.281 - 0.007ms returns 0xE0000FF
T41B8 000:349.292 JLINK_GetDebugInfo(0x100 = JLINKARM_ROM_TABLE_ADDR_INDEX)
T41B8 000:349.298   Value=0xE00FF000
T41B8 000:349.305 - 0.016ms returns 0x00
T41B8 000:352.623 JLINK_GetDebugInfo(0x100 = JLINKARM_ROM_TABLE_ADDR_INDEX)
T41B8 000:352.635   Value=0xE00FF000
T41B8 000:352.642 - 0.021ms returns 0x00
T41B8 000:352.648 JLINK_GetDebugInfo(0x101 = JLINKARM_DEBUG_INFO_ETM_ADDR_INDEX)
T41B8 000:352.653   Value=0x00000000
T41B8 000:352.659 - 0.013ms returns 0x00
T41B8 000:352.671   JLINK_ReadMemEx(0xE0041FF0, 0x0010 Bytes, ..., Flags = 0x02000004)
T41B8 000:352.692    -- CPU_ReadMem(16 bytes @ 0xE0041FF0)
T41B8 000:352.997   Data:  00 00 00 00 00 00 00 00 00 00 00 00 00 00 00 00
T41B8 000:353.005 - 0.338ms returns 0x10
T41B8 000:353.012 JLINK_GetDebugInfo(0x102 = JLINKARM_DEBUG_INFO_MTB_ADDR_INDEX)
T41B8 000:353.017   Value=0x00000000
T41B8 000:353.023 - 0.013ms returns 0x00
T41B8 000:353.028 JLINK_GetDebugInfo(0x103 = JLINKARM_DEBUG_INFO_TPIU_ADDR_INDEX)
T41B8 000:353.033   Value=0xE0040000
T41B8 000:353.039 - 0.013ms returns 0x00
T41B8 000:353.045 JLINK_GetDebugInfo(0x104 = JLINKARM_DEBUG_INFO_ITM_ADDR_INDEX)
T41B8 000:353.050   Value=0xE0000000
T41B8 000:353.056 - 0.013ms returns 0x00
T41B8 000:353.061 JLINK_GetDebugInfo(0x105 = JLINKARM_DEBUG_INFO_DWT_ADDR_INDEX)
T41B8 000:353.066   Value=0xE0001000
T41B8 000:353.072 - 0.012ms returns 0x00
T41B8 000:353.077 JLINK_GetDebugInfo(0x106 = JLINKARM_DEBUG_INFO_FPB_ADDR_INDEX)
T41B8 000:353.082   Value=0xE0002000
T41B8 000:353.088 - 0.012ms returns 0x00
T41B8 000:353.094 JLINK_GetDebugInfo(0x107 = JLINKARM_DEBUG_INFO_NVIC_ADDR_INDEX)
T41B8 000:353.098   Value=0xE000E000
T41B8 000:353.104 - 0.012ms returns 0x00
T41B8 000:353.110 JLINK_GetDebugInfo(0x10C = JLINKARM_DEBUG_INFO_DBG_ADDR_INDEX)
T41B8 000:353.114   Value=0xE000EDF0
T41B8 000:353.120 - 0.013ms returns 0x00
T41B8 000:353.126 JLINK_GetDebugInfo(0x01 = Unknown)
T41B8 000:353.140   Value=0x00000001
T41B8 000:353.146 - 0.022ms returns 0x00
T41B8 000:353.153   JLINK_ReadMemU32(0xE000ED00, 0x0001 Items, ...)
T41B8 000:353.163    -- CPU_ReadMem(4 bytes @ 0xE000ED00)
T41B8 000:353.409   Data:  41 C2 0F 41
T41B8 000:353.418    - CPUID
T41B8 000:353.424 - 0.273ms returns 1
T41B8 000:353.430 JLINK_GetDebugInfo(0x10F = JLINKARM_DEBUG_INFO_HAS_CORTEX_M_SECURITY_EXT_INDEX)
T41B8 000:353.434   Value=0x00000000
T41B8 000:353.440 - 0.011ms returns 0x00
T41B8 000:353.447 JLINK_SetResetType(JLINKARM_CM3_RESET_TYPE_NORMAL)
T41B8 000:353.452 - 0.040ms returns JLINKARM_CM3_RESET_TYPE_NORMAL
T41B8 000:353.492 JLINK_Reset()
T41B8 000:353.562   CPU is running
T41B8 000:353.574    -- CPU_WriteMem(4 bytes @ 0xE000EDF0)
T41B8 000:353.853   CPU is running
T41B8 000:353.871    -- CPU_WriteMem(4 bytes @ 0xE000EDFC)
T41B8 000:356.803   Reset: Halt core after reset via DEMCR.VC_CORERESET.
T41B8 000:360.654   Reset: Reset device via AIRCR.SYSRESETREQ.
T41B8 000:360.669   CPU is running
T41B8 000:360.677    -- CPU_WriteMem(4 bytes @ 0xE000ED0C)
T41B8 000:414.078    -- CPU_ReadMem(4 bytes @ 0xE000EDF0)
T41B8 000:414.467    -- CPU_ReadMem(4 bytes @ 0xE000EDF0)
T41B8 000:414.818   CPU is running
T41B8 000:414.834    -- CPU_WriteMem(4 bytes @ 0xE000EDF0)
T41B8 000:415.186   CPU is running
T41B8 000:415.204    -- CPU_WriteMem(4 bytes @ 0xE000EDFC)
T41B8 000:420.863    -- CPU_ReadMem(4 bytes @ 0xE000EDF0)
T41B8 000:434.925    -- CPU_WriteMem(4 bytes @ 0xE0002000)
T41B8 000:435.115    -- CPU_ReadMem(4 bytes @ 0xE000EDFC)
T41B8 000:435.361    -- CPU_ReadMem(4 bytes @ 0xE0001000)
T41B8 000:435.607    -- CPU_WriteMem(4 bytes @ 0xE0001000)
T41B8 000:435.865 - 82.376ms
T41B8 000:435.877 JLINK_Halt()
T41B8 000:435.883 - 0.007ms returns 0x00
T41B8 000:435.890   JLINK_ReadMemU32(0xE000EDF0, 0x0001 Items, ...)
T41B8 000:435.901    -- CPU_ReadMem(4 bytes @ 0xE000EDF0)
T41B8 000:436.107   Data:  03 00 03 00
T41B8 000:436.115    - DHCSR
T41B8 000:436.121 - 0.234ms returns 1
T41B8 000:436.130   JLINK_WriteU32(0xE000EDF0, 0xA05F0003)
T41B8 000:436.137    - DHCSR
T41B8 000:436.148    -- CPU_WriteMem(4 bytes @ 0xE000EDF0)
T41B8 000:436.362 - 0.236ms returns 0
T41B8 000:436.371   JLINK_WriteU32(0xE000EDFC, 0x01000000)
T41B8 000:436.378    - DEMCR
T41B8 000:436.386    -- CPU_WriteMem(4 bytes @ 0xE000EDFC)
T41B8 000:436.606 - 0.238ms returns 0
T41B8 000:446.277 JLINK_GetHWStatus(...)
T41B8 000:446.493 - 0.239ms returns 0x00
T41B8 000:458.811 JLINK_GetNumBPUnits(Type = 0xFFFFFF00)
T41B8 000:458.827 - 0.019ms returns 0x06
T41B8 000:458.835 JLINK_GetNumBPUnits(Type = 0xF0)
T41B8 000:458.841 - 0.008ms returns 0x2000
T41B8 000:458.848 JLINK_GetNumWPUnits()
T41B8 000:458.854 - 0.008ms returns 0x04
T41B8 000:470.417 JLINK_GetSpeed()
T41B8 000:470.435 - 0.022ms returns 0x1388
T41B8 000:477.207   JLINK_ReadMemU32(0xE000E004, 0x0001 Items, ...)
T41B8 000:477.233    -- CPU_ReadMem(4 bytes @ 0xE000E004)
T41B8 000:477.496   Data:  01 00 00 00
T41B8 000:477.517 - 0.314ms returns 1
T41B8 000:477.528   JLINK_ReadMemU32(0xE000E004, 0x0001 Items, ...)
T41B8 000:477.544    -- CPU_ReadMem(4 bytes @ 0xE000E004)
T41B8 000:477.763   Data:  01 00 00 00
T41B8 000:477.775 - 0.249ms returns 1
T41B8 000:477.783 JLINK_WriteMemEx(0xE0001000, 0x001C Bytes, ..., Flags = 0x02000004)
T41B8 000:477.789   Data:  01 00 00 00 00 00 00 00 00 00 00 00 00 00 00 00 ...
T41B8 000:478.039    -- CPU_WriteMem(28 bytes @ 0xE0001000)
T41B8 000:478.319 - 0.540ms returns 0x1C
T41B8 000:478.331 JLINK_Halt()
T41B8 000:478.335 - 0.006ms returns 0x00
T41B8 000:478.340 JLINK_IsHalted()
T41B8 000:478.344 - 0.006ms returns TRUE
T41B8 000:491.647 JLINK_WriteMem(0x20000000, 0x010C Bytes, ...)
T41B8 000:491.659   Data:  00 BE 0A E0 0D 78 2D 06 68 40 08 24 40 00 00 D3 ...
T41B8 000:491.911    -- CPU_WriteMem(268 bytes @ 0x20000000)
T41B8 000:492.905 - 1.263ms returns 0x10C
T41B8 000:492.935 JLINK_WriteReg(R0, 0x08000000)
T41B8 000:492.947 - 0.015ms returns 0x00
T41B8 000:492.953 JLINK_WriteReg(R1, 0x016E3600)
T41B8 000:492.958 - 0.007ms returns 0x00
T41B8 000:492.964 JLINK_WriteReg(R2, 0x00000001)
T41B8 000:492.969 - 0.007ms returns 0x00
T41B8 000:492.975 JLINK_WriteReg(R3, 0x00000000)
T41B8 000:492.980 - 0.007ms returns 0x00
T41B8 000:492.985 JLINK_WriteReg(R4, 0x00000000)
T41B8 000:492.990 - 0.007ms returns 0x00
T41B8 000:492.996 JLINK_WriteReg(R5, 0x00000000)
T41B8 000:493.001 - 0.007ms returns 0x00
T41B8 000:493.007 JLINK_WriteReg(R6, 0x00000000)
T41B8 000:493.011 - 0.007ms returns 0x00
T41B8 000:493.017 JLINK_WriteReg(R7, 0x00000000)
T41B8 000:493.022 - 0.007ms returns 0x00
T41B8 000:493.028 JLINK_WriteReg(R8, 0x00000000)
T41B8 000:493.033 - 0.007ms returns 0x00
T41B8 000:493.039 JLINK_WriteReg(R9, 0x20000108)
T41B8 000:493.044 - 0.007ms returns 0x00
T41B8 000:493.049 JLINK_WriteReg(R10, 0x00000000)
T41B8 000:493.054 - 0.007ms returns 0x00
T41B8 000:493.060 JLINK_WriteReg(R11, 0x00000000)
T41B8 000:493.065 - 0.007ms returns 0x00
T41B8 000:493.071 JLINK_WriteReg(R12, 0x00000000)
T41B8 000:493.076 - 0.007ms returns 0x00
T41B8 000:493.082 JLINK_WriteReg(R13 (SP), 0x20002000)
T41B8 000:493.091 - 0.012ms returns 0x00
T41B8 000:493.098 JLINK_WriteReg(R14, 0x20000001)
T41B8 000:493.103 - 0.007ms returns 0x00
T41B8 000:493.109 JLINK_WriteReg(R15 (PC), 0x20000038)
T41B8 000:493.114 - 0.007ms returns 0x00
T41B8 000:493.120 JLINK_WriteReg(XPSR, 0x01000000)
T41B8 000:493.125 - 0.007ms returns 0x00
T41B8 000:493.130 JLINK_WriteReg(MSP, 0x20002000)
T41B8 000:493.136 - 0.009ms returns 0x00
T41B8 000:493.143 JLINK_WriteReg(PSP, 0x20002000)
T41B8 000:493.148 - 0.007ms returns 0x00
T41B8 000:493.154 JLINK_WriteReg(CFBP, 0x00000000)
T41B8 000:493.158 - 0.007ms returns 0x00
T41B8 000:493.165   JLINK_SetBPEx(Addr = 0x20000000, Type = 0xFFFFFFF2)
T41B8 000:493.176    -- CPU_ReadMem(4 bytes @ 0x20000000)
T41B8 000:493.361    -- CPU_WriteMem(4 bytes @ 0x20000000)
T41B8 000:493.616    -- CPU_ReadMem(4 bytes @ 0x20000000)
T41B8 000:493.843    -- CPU_WriteMem(4 bytes @ 0x20000000)
T41B8 000:494.111    -- CPU_ReadMem(2 bytes @ 0x20000000)
T41B8 000:494.345 - 1.183ms returns 0x00000001
T41B8 000:494.353 JLINK_Go()
T41B8 000:494.359    -- CPU_WriteMem(2 bytes @ 0x20000000)
T41B8 000:494.618    -- CPU_ReadMem(4 bytes @ 0xE0001000)
T41B8 000:494.867    -- CPU_WriteMem(4 bytes @ 0xE0002008)
T41B8 000:494.875    -- CPU_WriteMem(4 bytes @ 0xE000200C)
T41B8 000:494.881    -- CPU_WriteMem(4 bytes @ 0xE0002010)
T41B8 000:494.887    -- CPU_WriteMem(4 bytes @ 0xE0002014)
T41B8 000:494.893    -- CPU_WriteMem(4 bytes @ 0xE0002018)
T41B8 000:494.899    -- CPU_WriteMem(4 bytes @ 0xE000201C)
T41B8 000:495.636    -- CPU_WriteMem(4 bytes @ 0xE0001004)
T41B8 000:497.451 - 3.108ms
T41B8 000:497.468 JLINK_IsHalted()
T41B8 000:499.206    -- CPU_ReadMem(2 bytes @ 0x20000000)
T41B8 000:499.435 - 1.976ms returns TRUE
T41B8 000:499.450 JLINK_ReadReg(R15 (PC))
T41B8 000:499.457 - 0.010ms returns 0x20000000
T41B8 000:499.463 JLINK_ClrBPEx(BPHandle = 0x00000001)
T41B8 000:499.468 - 0.007ms returns 0x00
T41B8 000:499.474 JLINK_ReadReg(R0)
T41B8 000:499.479 - 0.006ms returns 0x00000000
T41B8 000:500.045 JLINK_WriteReg(R0, 0x08010000)
T41B8 000:500.056 - 0.013ms returns 0x00
T41B8 000:500.062 JLINK_WriteReg(R1, 0x00001000)
T41B8 000:500.067 - 0.006ms returns 0x00
T41B8 000:500.072 JLINK_WriteReg(R2, 0x000000FF)
T41B8 000:500.077 - 0.006ms returns 0x00
T41B8 000:500.082 JLINK_WriteReg(R3, 0x00000000)
T41B8 000:500.087 - 0.006ms returns 0x00
T41B8 000:500.092 JLINK_WriteReg(R4, 0x00000000)
T41B8 000:500.096 - 0.006ms returns 0x00
T41B8 000:500.102 JLINK_WriteReg(R5, 0x00000000)
T41B8 000:500.106 - 0.008ms returns 0x00
T41B8 000:500.113 JLINK_WriteReg(R6, 0x00000000)
T41B8 000:500.118 - 0.006ms returns 0x00
T41B8 000:500.123 JLINK_WriteReg(R7, 0x00000000)
T41B8 000:500.128 - 0.006ms returns 0x00
T41B8 000:500.133 JLINK_WriteReg(R8, 0x00000000)
T41B8 000:500.138 - 0.007ms returns 0x00
T41B8 000:500.143 JLINK_WriteReg(R9, 0x20000108)
T41B8 000:500.148 - 0.006ms returns 0x00
T41B8 000:500.153 JLINK_WriteReg(R10, 0x00000000)
T41B8 000:500.157 - 0.006ms returns 0x00
T41B8 000:500.163 JLINK_WriteReg(R11, 0x00000000)
T41B8 000:500.167 - 0.006ms returns 0x00
T41B8 000:500.172 JLINK_WriteReg(R12, 0x00000000)
T41B8 000:500.177 - 0.006ms returns 0x00
T41B8 000:500.182 JLINK_WriteReg(R13 (SP), 0x20002000)
T41B8 000:500.187 - 0.007ms returns 0x00
T41B8 000:500.193 JLINK_WriteReg(R14, 0x20000001)
T41B8 000:500.197 - 0.006ms returns 0x00
T41B8 000:500.202 JLINK_WriteReg(R15 (PC), 0x20000020)
T41B8 000:500.207 - 0.006ms returns 0x00
T41B8 000:500.216 JLINK_WriteReg(XPSR, 0x01000000)
T41B8 000:500.221 - 0.006ms returns 0x00
T41B8 000:500.226 JLINK_WriteReg(MSP, 0x20002000)
T41B8 000:500.231 - 0.006ms returns 0x00
T41B8 000:500.236 JLINK_WriteReg(PSP, 0x20002000)
T41B8 000:500.241 - 0.006ms returns 0x00
T41B8 000:500.246 JLINK_WriteReg(CFBP, 0x00000000)
T41B8 000:500.251 - 0.006ms returns 0x00
T41B8 000:500.257   JLINK_SetBPEx(Addr = 0x20000000, Type = 0xFFFFFFF2)
T41B8 000:500.264 - 0.009ms returns 0x00000002
T41B8 000:500.269 JLINK_Go()
T41B8 000:500.280    -- CPU_ReadMem(4 bytes @ 0xE0001000)
T41B8 000:502.048 - 1.784ms
T41B8 000:502.058 JLINK_IsHalted()
T41B8 000:503.742    -- CPU_ReadMem(2 bytes @ 0x20000000)
T41B8 000:503.991 - 1.939ms returns TRUE
T41B8 000:504.004 JLINK_ReadReg(R15 (PC))
T41B8 000:504.013 - 0.011ms returns 0x20000000
T41B8 000:504.022 JLINK_ClrBPEx(BPHandle = 0x00000002)
T41B8 000:504.032 - 0.014ms returns 0x00
T41B8 000:504.047 JLINK_ReadReg(R0)
T41B8 000:504.053 - 0.009ms returns 0x00000001
T41B8 000:504.063 JLINK_WriteReg(R0, 0x08010000)
T41B8 000:504.069 - 0.009ms returns 0x00
T41B8 000:504.076 JLINK_WriteReg(R1, 0x00001000)
T41B8 000:504.082 - 0.008ms returns 0x00
T41B8 000:504.091 JLINK_WriteReg(R2, 0x000000FF)
T41B8 000:504.096 - 0.008ms returns 0x00
T41B8 000:504.102 JLINK_WriteReg(R3, 0x00000000)
T41B8 000:504.108 - 0.008ms returns 0x00
T41B8 000:504.115 JLINK_WriteReg(R4, 0x00000000)
T41B8 000:504.120 - 0.008ms returns 0x00
T41B8 000:504.127 JLINK_WriteReg(R5, 0x00000000)
T41B8 000:504.132 - 0.008ms returns 0x00
T41B8 000:504.139 JLINK_WriteReg(R6, 0x00000000)
T41B8 000:504.145 - 0.008ms returns 0x00
T41B8 000:504.151 JLINK_WriteReg(R7, 0x00000000)
T41B8 000:504.157 - 0.008ms returns 0x00
T41B8 000:504.163 JLINK_WriteReg(R8, 0x00000000)
T41B8 000:504.169 - 0.008ms returns 0x00
T41B8 000:504.175 JLINK_WriteReg(R9, 0x20000108)
T41B8 000:504.181 - 0.008ms returns 0x00
T41B8 000:504.187 JLINK_WriteReg(R10, 0x00000000)
T41B8 000:504.193 - 0.008ms returns 0x00
T41B8 000:504.200 JLINK_WriteReg(R11, 0x00000000)
T41B8 000:504.206 - 0.008ms returns 0x00
T41B8 000:504.212 JLINK_WriteReg(R12, 0x00000000)
T41B8 000:504.218 - 0.008ms returns 0x00
T41B8 000:504.224 JLINK_WriteReg(R13 (SP), 0x20002000)
T41B8 000:504.230 - 0.008ms returns 0x00
T41B8 000:504.237 JLINK_WriteReg(R14, 0x20000001)
T41B8 000:504.242 - 0.008ms returns 0x00
T41B8 000:504.249 JLINK_WriteReg(R15 (PC), 0x2000003C)
T41B8 000:504.254 - 0.008ms returns 0x00
T41B8 000:504.261 JLINK_WriteReg(XPSR, 0x01000000)
T41B8 000:504.266 - 0.008ms returns 0x00
T41B8 000:504.273 JLINK_WriteReg(MSP, 0x20002000)
T41B8 000:504.278 - 0.008ms returns 0x00
T41B8 000:504.285 JLINK_WriteReg(PSP, 0x20002000)
T41B8 000:504.290 - 0.008ms returns 0x00
T41B8 000:504.297 JLINK_WriteReg(CFBP, 0x00000000)
T41B8 000:504.302 - 0.008ms returns 0x00
T41B8 000:504.309   JLINK_SetBPEx(Addr = 0x20000000, Type = 0xFFFFFFF2)
T41B8 000:504.318 - 0.011ms returns 0x00000003
T41B8 000:504.324 JLINK_Go()
T41B8 000:504.335    -- CPU_ReadMem(4 bytes @ 0xE0001000)
T41B8 000:506.060 - 1.739ms
T41B8 000:506.069 JLINK_IsHalted()
T41B8 000:506.258 - 0.196ms returns FALSE
T41B8 000:555.355 JLINK_IsHalted()
T41B8 000:557.449    -- CPU_ReadMem(2 bytes @ 0x20000000)
T41B8 000:557.900 - 2.583ms returns TRUE
T41B8 000:557.945 JLINK_ReadReg(R15 (PC))
T41B8 000:557.954 - 0.011ms returns 0x20000000
T41B8 000:557.961 JLINK_ClrBPEx(BPHandle = 0x00000003)
T41B8 000:557.967 - 0.007ms returns 0x00
T41B8 000:557.973 JLINK_ReadReg(R0)
T41B8 000:557.978 - 0.007ms returns 0x00000000
T41B8 000:558.773 JLINK_WriteReg(R0, 0x08011000)
T41B8 000:558.785 - 0.014ms returns 0x00
T41B8 000:558.792 JLINK_WriteReg(R1, 0x00001000)
T41B8 000:558.797 - 0.007ms returns 0x00
T41B8 000:558.803 JLINK_WriteReg(R2, 0x000000FF)
T41B8 000:558.808 - 0.007ms returns 0x00
T41B8 000:558.815 JLINK_WriteReg(R3, 0x00000000)
T41B8 000:558.820 - 0.007ms returns 0x00
T41B8 000:558.826 JLINK_WriteReg(R4, 0x00000000)
T41B8 000:558.831 - 0.007ms returns 0x00
T41B8 000:558.837 JLINK_WriteReg(R5, 0x00000000)
T41B8 000:558.842 - 0.007ms returns 0x00
T41B8 000:558.849 JLINK_WriteReg(R6, 0x00000000)
T41B8 000:558.854 - 0.007ms returns 0x00
T41B8 000:558.860 JLINK_WriteReg(R7, 0x00000000)
T41B8 000:558.865 - 0.007ms returns 0x00
T41B8 000:558.871 JLINK_WriteReg(R8, 0x00000000)
T41B8 000:558.876 - 0.007ms returns 0x00
T41B8 000:558.882 JLINK_WriteReg(R9, 0x20000108)
T41B8 000:558.887 - 0.007ms returns 0x00
T41B8 000:558.894 JLINK_WriteReg(R10, 0x00000000)
T41B8 000:558.899 - 0.007ms returns 0x00
T41B8 000:558.905 JLINK_WriteReg(R11, 0x00000000)
T41B8 000:558.915 - 0.012ms returns 0x00
T41B8 000:558.921 JLINK_WriteReg(R12, 0x00000000)
T41B8 000:558.926 - 0.007ms returns 0x00
T41B8 000:558.933 JLINK_WriteReg(R13 (SP), 0x20002000)
T41B8 000:558.938 - 0.008ms returns 0x00
T41B8 000:558.945 JLINK_WriteReg(R14, 0x20000001)
T41B8 000:558.950 - 0.007ms returns 0x00
T41B8 000:558.956 JLINK_WriteReg(R15 (PC), 0x20000020)
T41B8 000:558.961 - 0.007ms returns 0x00
T41B8 000:558.967 JLINK_WriteReg(XPSR, 0x01000000)
T41B8 000:558.973 - 0.007ms returns 0x00
T41B8 000:558.979 JLINK_WriteReg(MSP, 0x20002000)
T41B8 000:558.984 - 0.007ms returns 0x00
T41B8 000:558.990 JLINK_WriteReg(PSP, 0x20002000)
T41B8 000:558.995 - 0.007ms returns 0x00
T41B8 000:559.001 JLINK_WriteReg(CFBP, 0x00000000)
T41B8 000:559.006 - 0.007ms returns 0x00
T41B8 000:559.014   JLINK_SetBPEx(Addr = 0x20000000, Type = 0xFFFFFFF2)
T41B8 000:559.022 - 0.011ms returns 0x00000004
T41B8 000:559.028 JLINK_Go()
T41B8 000:559.040    -- CPU_ReadMem(4 bytes @ 0xE0001000)
T41B8 000:561.325 - 2.316ms
T41B8 000:561.350 JLINK_IsHalted()
T41B8 000:563.163    -- CPU_ReadMem(2 bytes @ 0x20000000)
T41B8 000:563.568 - 2.229ms returns TRUE
T41B8 000:563.590 JLINK_ReadReg(R15 (PC))
T41B8 000:563.602 - 0.015ms returns 0x20000000
T41B8 000:563.611 JLINK_ClrBPEx(BPHandle = 0x00000004)
T41B8 000:563.619 - 0.011ms returns 0x00
T41B8 000:563.628 JLINK_ReadReg(R0)
T41B8 000:563.635 - 0.010ms returns 0x00000001
T41B8 000:563.646 JLINK_WriteReg(R0, 0x08011000)
T41B8 000:563.654 - 0.011ms returns 0x00
T41B8 000:563.662 JLINK_WriteReg(R1, 0x00001000)
T41B8 000:563.670 - 0.010ms returns 0x00
T41B8 000:563.678 JLINK_WriteReg(R2, 0x000000FF)
T41B8 000:563.685 - 0.010ms returns 0x00
T41B8 000:563.693 JLINK_WriteReg(R3, 0x00000000)
T41B8 000:563.700 - 0.010ms returns 0x00
T41B8 000:563.713 JLINK_WriteReg(R4, 0x00000000)
T41B8 000:563.737 - 0.033ms returns 0x00
T41B8 000:563.760 JLINK_WriteReg(R5, 0x00000000)
T41B8 000:563.779 - 0.027ms returns 0x00
T41B8 000:563.802 JLINK_WriteReg(R6, 0x00000000)
T41B8 000:563.820 - 0.027ms returns 0x00
T41B8 000:563.843 JLINK_WriteReg(R7, 0x00000000)
T41B8 000:563.862 - 0.028ms returns 0x00
T41B8 000:563.885 JLINK_WriteReg(R8, 0x00000000)
T41B8 000:563.905 - 0.024ms returns 0x00
T41B8 000:563.914 JLINK_WriteReg(R9, 0x20000108)
T41B8 000:563.921 - 0.010ms returns 0x00
T41B8 000:563.929 JLINK_WriteReg(R10, 0x00000000)
T41B8 000:563.936 - 0.010ms returns 0x00
T41B8 000:563.945 JLINK_WriteReg(R11, 0x00000000)
T41B8 000:563.952 - 0.010ms returns 0x00
T41B8 000:563.960 JLINK_WriteReg(R12, 0x00000000)
T41B8 000:563.967 - 0.010ms returns 0x00
T41B8 000:563.975 JLINK_WriteReg(R13 (SP), 0x20002000)
T41B8 000:563.983 - 0.010ms returns 0x00
T41B8 000:564.005 JLINK_WriteReg(R14, 0x20000001)
T41B8 000:564.024 - 0.028ms returns 0x00
T41B8 000:564.047 JLINK_WriteReg(R15 (PC), 0x2000003C)
T41B8 000:564.067 - 0.028ms returns 0x00
T41B8 000:564.090 JLINK_WriteReg(XPSR, 0x01000000)
T41B8 000:564.109 - 0.028ms returns 0x00
T41B8 000:564.148 JLINK_WriteReg(MSP, 0x20002000)
T41B8 000:564.167 - 0.028ms returns 0x00
T41B8 000:564.190 JLINK_WriteReg(PSP, 0x20002000)
T41B8 000:564.209 - 0.028ms returns 0x00
T41B8 000:564.232 JLINK_WriteReg(CFBP, 0x00000000)
T41B8 000:564.251 - 0.028ms returns 0x00
T41B8 000:564.282   JLINK_SetBPEx(Addr = 0x20000000, Type = 0xFFFFFFF2)
T41B8 000:564.293 - 0.015ms returns 0x00000005
T41B8 000:564.302 JLINK_Go()
T41B8 000:564.316    -- CPU_ReadMem(4 bytes @ 0xE0001000)
T41B8 000:566.312 - 2.038ms
T41B8 000:566.359 JLINK_IsHalted()
T41B8 000:566.622 - 0.275ms returns FALSE
T41B8 000:568.229 JLINK_IsHalted()
T41B8 000:568.555 - 0.330ms returns FALSE
T41B8 000:570.224 JLINK_IsHalted()
T41B8 000:570.517 - 0.296ms returns FALSE
T41B8 000:571.811 JLINK_IsHalted()
T41B8 000:572.121 - 0.317ms returns FALSE
T41B8 000:579.460 JLINK_IsHalted()
T41B8 000:579.926 - 0.489ms returns FALSE
T41B8 000:581.486 JLINK_IsHalted()
T41B8 000:581.789 - 0.320ms returns FALSE
T41B8 000:583.874 JLINK_IsHalted()
T41B8 000:584.198 - 0.337ms returns FALSE
T41B8 000:585.969 JLINK_IsHalted()
T41B8 000:586.239 - 0.278ms returns FALSE
T41B8 000:587.968 JLINK_IsHalted()
T41B8 000:588.175 - 0.213ms returns FALSE
T41B8 000:589.952 JLINK_IsHalted()
T41B8 000:590.188 - 0.240ms returns FALSE
T41B8 000:591.545 JLINK_IsHalted()
T41B8 000:591.939 - 0.413ms returns FALSE
T41B8 000:593.686 JLINK_IsHalted()
T41B8 000:594.038 - 0.366ms returns FALSE
T41B8 000:595.985 JLINK_IsHalted()
T41B8 000:596.274 - 0.313ms returns FALSE
T41B8 000:597.977 JLINK_IsHalted()
T41B8 000:598.245 - 0.279ms returns FALSE
T41B8 000:599.980 JLINK_IsHalted()
T41B8 000:601.744    -- CPU_ReadMem(2 bytes @ 0x20000000)
T41B8 000:601.992 - 2.018ms returns TRUE
T41B8 000:602.028 JLINK_ReadReg(R15 (PC))
T41B8 000:602.039 - 0.017ms returns 0x20000000
T41B8 000:602.056 JLINK_ClrBPEx(BPHandle = 0x00000005)
T41B8 000:602.067 - 0.015ms returns 0x00
T41B8 000:602.082 JLINK_ReadReg(R0)
T41B8 000:602.092 - 0.014ms returns 0x00000000
T41B8 000:603.038 JLINK_WriteReg(R0, 0x08012000)
T41B8 000:603.069 - 0.037ms returns 0x00
T41B8 000:603.083 JLINK_WriteReg(R1, 0x00001000)
T41B8 000:603.097 - 0.019ms returns 0x00
T41B8 000:603.111 JLINK_WriteReg(R2, 0x000000FF)
T41B8 000:603.119 - 0.011ms returns 0x00
T41B8 000:603.127 JLINK_WriteReg(R3, 0x00000000)
T41B8 000:603.133 - 0.009ms returns 0x00
T41B8 000:603.140 JLINK_WriteReg(R4, 0x00000000)
T41B8 000:603.146 - 0.009ms returns 0x00
T41B8 000:603.154 JLINK_WriteReg(R5, 0x00000000)
T41B8 000:603.160 - 0.009ms returns 0x00
T41B8 000:603.167 JLINK_WriteReg(R6, 0x00000000)
T41B8 000:603.174 - 0.009ms returns 0x00
T41B8 000:603.181 JLINK_WriteReg(R7, 0x00000000)
T41B8 000:603.187 - 0.009ms returns 0x00
T41B8 000:603.194 JLINK_WriteReg(R8, 0x00000000)
T41B8 000:603.201 - 0.009ms returns 0x00
T41B8 000:603.208 JLINK_WriteReg(R9, 0x20000108)
T41B8 000:603.215 - 0.009ms returns 0x00
T41B8 000:603.222 JLINK_WriteReg(R10, 0x00000000)
T41B8 000:603.228 - 0.009ms returns 0x00
T41B8 000:603.236 JLINK_WriteReg(R11, 0x00000000)
T41B8 000:603.242 - 0.008ms returns 0x00
T41B8 000:603.249 JLINK_WriteReg(R12, 0x00000000)
T41B8 000:603.255 - 0.008ms returns 0x00
T41B8 000:603.262 JLINK_WriteReg(R13 (SP), 0x20002000)
T41B8 000:603.268 - 0.009ms returns 0x00
T41B8 000:603.275 JLINK_WriteReg(R14, 0x20000001)
T41B8 000:603.281 - 0.008ms returns 0x00
T41B8 000:603.288 JLINK_WriteReg(R15 (PC), 0x20000020)
T41B8 000:603.294 - 0.008ms returns 0x00
T41B8 000:603.300 JLINK_WriteReg(XPSR, 0x01000000)
T41B8 000:603.306 - 0.009ms returns 0x00
T41B8 000:603.313 JLINK_WriteReg(MSP, 0x20002000)
T41B8 000:603.319 - 0.008ms returns 0x00
T41B8 000:603.325 JLINK_WriteReg(PSP, 0x20002000)
T41B8 000:603.331 - 0.008ms returns 0x00
T41B8 000:603.338 JLINK_WriteReg(CFBP, 0x00000000)
T41B8 000:603.344 - 0.008ms returns 0x00
T41B8 000:603.352   JLINK_SetBPEx(Addr = 0x20000000, Type = 0xFFFFFFF2)
T41B8 000:603.361 - 0.012ms returns 0x00000006
T41B8 000:603.368 JLINK_Go()
T41B8 000:603.379    -- CPU_ReadMem(4 bytes @ 0xE0001000)
T41B8 000:605.457 - 2.103ms
T41B8 000:605.482 JLINK_IsHalted()
T41B8 000:607.299    -- CPU_ReadMem(2 bytes @ 0x20000000)
T41B8 000:607.536 - 2.071ms returns TRUE
T41B8 000:607.564 JLINK_ReadReg(R15 (PC))
T41B8 000:607.578 - 0.018ms returns 0x20000000
T41B8 000:607.589 JLINK_ClrBPEx(BPHandle = 0x00000006)
T41B8 000:607.598 - 0.013ms returns 0x00
T41B8 000:607.609 JLINK_ReadReg(R0)
T41B8 000:607.618 - 0.013ms returns 0x00000001
T41B8 000:607.632 JLINK_WriteReg(R0, 0x08012000)
T41B8 000:607.642 - 0.014ms returns 0x00
T41B8 000:607.652 JLINK_WriteReg(R1, 0x00001000)
T41B8 000:607.661 - 0.012ms returns 0x00
T41B8 000:607.672 JLINK_WriteReg(R2, 0x000000FF)
T41B8 000:607.680 - 0.012ms returns 0x00
T41B8 000:607.691 JLINK_WriteReg(R3, 0x00000000)
T41B8 000:607.700 - 0.013ms returns 0x00
T41B8 000:607.710 JLINK_WriteReg(R4, 0x00000000)
T41B8 000:607.718 - 0.012ms returns 0x00
T41B8 000:607.729 JLINK_WriteReg(R5, 0x00000000)
T41B8 000:607.737 - 0.013ms returns 0x00
T41B8 000:607.748 JLINK_WriteReg(R6, 0x00000000)
T41B8 000:607.765 - 0.021ms returns 0x00
T41B8 000:607.776 JLINK_WriteReg(R7, 0x00000000)
T41B8 000:607.784 - 0.012ms returns 0x00
T41B8 000:607.795 JLINK_WriteReg(R8, 0x00000000)
T41B8 000:607.803 - 0.012ms returns 0x00
T41B8 000:607.814 JLINK_WriteReg(R9, 0x20000108)
T41B8 000:607.822 - 0.012ms returns 0x00
T41B8 000:607.833 JLINK_WriteReg(R10, 0x00000000)
T41B8 000:607.841 - 0.012ms returns 0x00
T41B8 000:607.852 JLINK_WriteReg(R11, 0x00000000)
T41B8 000:607.866 - 0.018ms returns 0x00
T41B8 000:607.876 JLINK_WriteReg(R12, 0x00000000)
T41B8 000:607.883 - 0.010ms returns 0x00
T41B8 000:607.891 JLINK_WriteReg(R13 (SP), 0x20002000)
T41B8 000:607.898 - 0.010ms returns 0x00
T41B8 000:607.907 JLINK_WriteReg(R14, 0x20000001)
T41B8 000:607.914 - 0.010ms returns 0x00
T41B8 000:607.922 JLINK_WriteReg(R15 (PC), 0x2000003C)
T41B8 000:607.929 - 0.010ms returns 0x00
T41B8 000:607.938 JLINK_WriteReg(XPSR, 0x01000000)
T41B8 000:607.945 - 0.010ms returns 0x00
T41B8 000:607.954 JLINK_WriteReg(MSP, 0x20002000)
T41B8 000:607.961 - 0.010ms returns 0x00
T41B8 000:607.969 JLINK_WriteReg(PSP, 0x20002000)
T41B8 000:607.976 - 0.010ms returns 0x00
T41B8 000:607.985 JLINK_WriteReg(CFBP, 0x00000000)
T41B8 000:607.992 - 0.010ms returns 0x00
T41B8 000:608.002   JLINK_SetBPEx(Addr = 0x20000000, Type = 0xFFFFFFF2)
T41B8 000:608.012 - 0.014ms returns 0x00000007
T41B8 000:608.021 JLINK_Go()
T41B8 000:608.035    -- CPU_ReadMem(4 bytes @ 0xE0001000)
T41B8 000:610.018 - 2.014ms
T41B8 000:610.049 JLINK_IsHalted()
T41B8 000:610.513 - 0.481ms returns FALSE
T41B8 000:612.160 JLINK_IsHalted()
T41B8 000:612.665 - 0.517ms returns FALSE
T41B8 000:614.273 JLINK_IsHalted()
T41B8 000:614.754 - 0.498ms returns FALSE
T41B8 000:616.762 JLINK_IsHalted()
T41B8 000:617.311 - 0.574ms returns FALSE
T41B8 000:618.685 JLINK_IsHalted()
T41B8 000:619.199 - 0.527ms returns FALSE
T41B8 000:620.701 JLINK_IsHalted()
T41B8 000:621.226 - 0.544ms returns FALSE
T41B8 000:623.342 JLINK_IsHalted()
T41B8 000:623.817 - 0.495ms returns FALSE
T41B8 000:630.477 JLINK_IsHalted()
T41B8 000:630.966 - 0.506ms returns FALSE
T41B8 000:632.572 JLINK_IsHalted()
T41B8 000:632.980 - 0.420ms returns FALSE
T41B8 000:634.168 JLINK_IsHalted()
T41B8 000:634.487 - 0.327ms returns FALSE
T41B8 000:636.179 JLINK_IsHalted()
T41B8 000:636.512 - 0.344ms returns FALSE
T41B8 000:639.170 JLINK_IsHalted()
T41B8 000:639.523 - 0.361ms returns FALSE
T41B8 000:641.201 JLINK_IsHalted()
T41B8 000:641.447 - 0.264ms returns FALSE
T41B8 000:642.758 JLINK_IsHalted()
T41B8 000:643.079 - 0.331ms returns FALSE
T41B8 000:645.025 JLINK_IsHalted()
T41B8 000:647.048    -- CPU_ReadMem(2 bytes @ 0x20000000)
T41B8 000:647.455 - 2.447ms returns TRUE
T41B8 000:647.493 JLINK_ReadReg(R15 (PC))
T41B8 000:647.549 - 0.067ms returns 0x20000000
T41B8 000:647.575 JLINK_ClrBPEx(BPHandle = 0x00000007)
T41B8 000:647.602 - 0.039ms returns 0x00
T41B8 000:647.629 JLINK_ReadReg(R0)
T41B8 000:647.651 - 0.032ms returns 0x00000000
T41B8 000:648.230 JLINK_WriteReg(R0, 0x08013000)
T41B8 000:648.242 - 0.014ms returns 0x00
T41B8 000:648.248 JLINK_WriteReg(R1, 0x00001000)
T41B8 000:648.253 - 0.007ms returns 0x00
T41B8 000:648.258 JLINK_WriteReg(R2, 0x000000FF)
T41B8 000:648.263 - 0.007ms returns 0x00
T41B8 000:648.269 JLINK_WriteReg(R3, 0x00000000)
T41B8 000:648.273 - 0.007ms returns 0x00
T41B8 000:648.279 JLINK_WriteReg(R4, 0x00000000)
T41B8 000:648.284 - 0.007ms returns 0x00
T41B8 000:648.289 JLINK_WriteReg(R5, 0x00000000)
T41B8 000:648.294 - 0.007ms returns 0x00
T41B8 000:648.300 JLINK_WriteReg(R6, 0x00000000)
T41B8 000:648.304 - 0.006ms returns 0x00
T41B8 000:648.310 JLINK_WriteReg(R7, 0x00000000)
T41B8 000:648.315 - 0.007ms returns 0x00
T41B8 000:648.321 JLINK_WriteReg(R8, 0x00000000)
T41B8 000:648.325 - 0.006ms returns 0x00
T41B8 000:648.331 JLINK_WriteReg(R9, 0x20000108)
T41B8 000:648.336 - 0.006ms returns 0x00
T41B8 000:648.341 JLINK_WriteReg(R10, 0x00000000)
T41B8 000:648.346 - 0.007ms returns 0x00
T41B8 000:648.352 JLINK_WriteReg(R11, 0x00000000)
T41B8 000:648.398 - 0.050ms returns 0x00
T41B8 000:648.406 JLINK_WriteReg(R12, 0x00000000)
T41B8 000:648.411 - 0.007ms returns 0x00
T41B8 000:648.416 JLINK_WriteReg(R13 (SP), 0x20002000)
T41B8 000:648.421 - 0.007ms returns 0x00
T41B8 000:648.427 JLINK_WriteReg(R14, 0x20000001)
T41B8 000:648.432 - 0.006ms returns 0x00
T41B8 000:648.437 JLINK_WriteReg(R15 (PC), 0x20000020)
T41B8 000:648.442 - 0.007ms returns 0x00
T41B8 000:648.448 JLINK_WriteReg(XPSR, 0x01000000)
T41B8 000:648.453 - 0.007ms returns 0x00
T41B8 000:648.461 JLINK_WriteReg(MSP, 0x20002000)
T41B8 000:648.466 - 0.007ms returns 0x00
T41B8 000:648.471 JLINK_WriteReg(PSP, 0x20002000)
T41B8 000:648.476 - 0.006ms returns 0x00
T41B8 000:648.482 JLINK_WriteReg(CFBP, 0x00000000)
T41B8 000:648.486 - 0.007ms returns 0x00
T41B8 000:648.500   JLINK_SetBPEx(Addr = 0x20000000, Type = 0xFFFFFFF2)
T41B8 000:648.524 - 0.041ms returns 0x00000008
T41B8 000:648.546 JLINK_Go()
T41B8 000:648.562    -- CPU_ReadMem(4 bytes @ 0xE0001000)
T41B8 000:650.888 - 2.353ms
T41B8 000:650.909 JLINK_IsHalted()
T41B8 000:653.024    -- CPU_ReadMem(2 bytes @ 0x20000000)
T41B8 000:653.458 - 2.559ms returns TRUE
T41B8 000:653.475 JLINK_ReadReg(R15 (PC))
T41B8 000:653.485 - 0.012ms returns 0x20000000
T41B8 000:653.493 JLINK_ClrBPEx(BPHandle = 0x00000008)
T41B8 000:653.499 - 0.009ms returns 0x00
T41B8 000:653.506 JLINK_ReadReg(R0)
T41B8 000:653.510 - 0.007ms returns 0x00000001
T41B8 000:653.519 JLINK_WriteReg(R0, 0x08013000)
T41B8 000:653.536 - 0.019ms returns 0x00
T41B8 000:653.542 JLINK_WriteReg(R1, 0x00001000)
T41B8 000:653.547 - 0.007ms returns 0x00
T41B8 000:653.553 JLINK_WriteReg(R2, 0x000000FF)
T41B8 000:653.558 - 0.007ms returns 0x00
T41B8 000:653.564 JLINK_WriteReg(R3, 0x00000000)
T41B8 000:653.569 - 0.007ms returns 0x00
T41B8 000:653.575 JLINK_WriteReg(R4, 0x00000000)
T41B8 000:653.580 - 0.007ms returns 0x00
T41B8 000:653.586 JLINK_WriteReg(R5, 0x00000000)
T41B8 000:653.591 - 0.007ms returns 0x00
T41B8 000:653.597 JLINK_WriteReg(R6, 0x00000000)
T41B8 000:653.602 - 0.007ms returns 0x00
T41B8 000:653.608 JLINK_WriteReg(R7, 0x00000000)
T41B8 000:653.613 - 0.007ms returns 0x00
T41B8 000:653.619 JLINK_WriteReg(R8, 0x00000000)
T41B8 000:653.623 - 0.007ms returns 0x00
T41B8 000:653.629 JLINK_WriteReg(R9, 0x20000108)
T41B8 000:653.634 - 0.007ms returns 0x00
T41B8 000:653.640 JLINK_WriteReg(R10, 0x00000000)
T41B8 000:653.645 - 0.007ms returns 0x00
T41B8 000:653.651 JLINK_WriteReg(R11, 0x00000000)
T41B8 000:653.656 - 0.007ms returns 0x00
T41B8 000:653.662 JLINK_WriteReg(R12, 0x00000000)
T41B8 000:653.667 - 0.007ms returns 0x00
T41B8 000:653.673 JLINK_WriteReg(R13 (SP), 0x20002000)
T41B8 000:653.678 - 0.008ms returns 0x00
T41B8 000:653.684 JLINK_WriteReg(R14, 0x20000001)
T41B8 000:653.689 - 0.007ms returns 0x00
T41B8 000:653.695 JLINK_WriteReg(R15 (PC), 0x2000003C)
T41B8 000:653.700 - 0.007ms returns 0x00
T41B8 000:653.706 JLINK_WriteReg(XPSR, 0x01000000)
T41B8 000:653.711 - 0.007ms returns 0x00
T41B8 000:653.717 JLINK_WriteReg(MSP, 0x20002000)
T41B8 000:653.722 - 0.007ms returns 0x00
T41B8 000:653.728 JLINK_WriteReg(PSP, 0x20002000)
T41B8 000:653.733 - 0.007ms returns 0x00
T41B8 000:653.739 JLINK_WriteReg(CFBP, 0x00000000)
T41B8 000:653.744 - 0.007ms returns 0x00
T41B8 000:653.750   JLINK_SetBPEx(Addr = 0x20000000, Type = 0xFFFFFFF2)
T41B8 000:653.758 - 0.010ms returns 0x00000009
T41B8 000:653.765 JLINK_Go()
T41B8 000:653.775    -- CPU_ReadMem(4 bytes @ 0xE0001000)
T41B8 000:655.950 - 2.196ms
T41B8 000:655.973 JLINK_IsHalted()
T41B8 000:656.392 - 0.429ms returns FALSE
T41B8 000:660.079 JLINK_IsHalted()
T41B8 000:660.496 - 0.435ms returns FALSE
T41B8 000:662.038 JLINK_IsHalted()
T41B8 000:662.473 - 0.453ms returns FALSE
T41B8 000:664.660 JLINK_IsHalted()
T41B8 000:665.068 - 0.418ms returns FALSE
T41B8 000:667.201 JLINK_IsHalted()
T41B8 000:667.598 - 0.404ms returns FALSE
T41B8 000:672.190 JLINK_IsHalted()
T41B8 000:672.600 - 0.418ms returns FALSE
T41B8 000:674.807 JLINK_IsHalted()
T41B8 000:675.226 - 0.430ms returns FALSE
T41B8 000:677.465 JLINK_IsHalted()
T41B8 000:677.912 - 0.465ms returns FALSE
T41B8 000:679.482 JLINK_IsHalted()
T41B8 000:679.887 - 0.425ms returns FALSE
T41B8 000:681.478 JLINK_IsHalted()
T41B8 000:681.928 - 0.474ms returns FALSE
T41B8 000:683.982 JLINK_IsHalted()
T41B8 000:684.345 - 0.382ms returns FALSE
T41B8 000:686.090 JLINK_IsHalted()
T41B8 000:686.502 - 0.430ms returns FALSE
T41B8 000:688.588 JLINK_IsHalted()
T41B8 000:689.000 - 0.425ms returns FALSE
T41B8 000:690.602 JLINK_IsHalted()
T41B8 000:692.631    -- CPU_ReadMem(2 bytes @ 0x20000000)
T41B8 000:693.120 - 2.530ms returns TRUE
T41B8 000:693.141 JLINK_ReadReg(R15 (PC))
T41B8 000:693.154 - 0.016ms returns 0x20000000
T41B8 000:693.163 JLINK_ClrBPEx(BPHandle = 0x00000009)
T41B8 000:693.171 - 0.011ms returns 0x00
T41B8 000:693.180 JLINK_ReadReg(R0)
T41B8 000:693.188 - 0.010ms returns 0x00000000
T41B8 000:693.974 JLINK_WriteReg(R0, 0x08014000)
T41B8 000:693.988 - 0.017ms returns 0x00
T41B8 000:693.996 JLINK_WriteReg(R1, 0x00001000)
T41B8 000:694.002 - 0.009ms returns 0x00
T41B8 000:694.010 JLINK_WriteReg(R2, 0x000000FF)
T41B8 000:694.016 - 0.009ms returns 0x00
T41B8 000:694.024 JLINK_WriteReg(R3, 0x00000000)
T41B8 000:694.068 - 0.049ms returns 0x00
T41B8 000:694.080 JLINK_WriteReg(R4, 0x00000000)
T41B8 000:694.085 - 0.006ms returns 0x00
T41B8 000:694.116 JLINK_WriteReg(R5, 0x00000000)
T41B8 000:694.124 - 0.009ms returns 0x00
T41B8 000:694.133 JLINK_WriteReg(R6, 0x00000000)
T41B8 000:694.139 - 0.008ms returns 0x00
T41B8 000:694.147 JLINK_WriteReg(R7, 0x00000000)
T41B8 000:694.151 - 0.006ms returns 0x00
T41B8 000:694.156 JLINK_WriteReg(R8, 0x00000000)
T41B8 000:694.160 - 0.006ms returns 0x00
T41B8 000:694.165 JLINK_WriteReg(R9, 0x20000108)
T41B8 000:694.169 - 0.005ms returns 0x00
T41B8 000:694.177 JLINK_WriteReg(R10, 0x00000000)
T41B8 000:694.181 - 0.006ms returns 0x00
T41B8 000:694.186 JLINK_WriteReg(R11, 0x00000000)
T41B8 000:694.190 - 0.006ms returns 0x00
T41B8 000:694.195 JLINK_WriteReg(R12, 0x00000000)
T41B8 000:694.199 - 0.006ms returns 0x00
T41B8 000:694.204 JLINK_WriteReg(R13 (SP), 0x20002000)
T41B8 000:694.209 - 0.006ms returns 0x00
T41B8 000:694.214 JLINK_WriteReg(R14, 0x20000001)
T41B8 000:694.218 - 0.006ms returns 0x00
T41B8 000:694.223 JLINK_WriteReg(R15 (PC), 0x20000020)
T41B8 000:694.227 - 0.006ms returns 0x00
T41B8 000:694.232 JLINK_WriteReg(XPSR, 0x01000000)
T41B8 000:694.236 - 0.006ms returns 0x00
T41B8 000:694.241 JLINK_WriteReg(MSP, 0x20002000)
T41B8 000:694.245 - 0.005ms returns 0x00
T41B8 000:694.249 JLINK_WriteReg(PSP, 0x20002000)
T41B8 000:694.254 - 0.006ms returns 0x00
T41B8 000:694.259 JLINK_WriteReg(CFBP, 0x00000000)
T41B8 000:694.263 - 0.006ms returns 0x00
T41B8 000:694.268   JLINK_SetBPEx(Addr = 0x20000000, Type = 0xFFFFFFF2)
T41B8 000:694.275 - 0.009ms returns 0x0000000A
T41B8 000:694.280 JLINK_Go()
T41B8 000:694.289    -- CPU_ReadMem(4 bytes @ 0xE0001000)
T41B8 000:696.482 - 2.213ms
T41B8 000:696.501 JLINK_IsHalted()
T41B8 000:698.490    -- CPU_ReadMem(2 bytes @ 0x20000000)
T41B8 000:698.894 - 2.404ms returns TRUE
T41B8 000:698.915 JLINK_ReadReg(R15 (PC))
T41B8 000:698.926 - 0.015ms returns 0x20000000
T41B8 000:698.935 JLINK_ClrBPEx(BPHandle = 0x0000000A)
T41B8 000:698.943 - 0.011ms returns 0x00
T41B8 000:698.952 JLINK_ReadReg(R0)
T41B8 000:698.959 - 0.010ms returns 0x00000001
T41B8 000:698.970 JLINK_WriteReg(R0, 0x08014000)
T41B8 000:698.978 - 0.011ms returns 0x00
T41B8 000:698.987 JLINK_WriteReg(R1, 0x00001000)
T41B8 000:698.994 - 0.010ms returns 0x00
T41B8 000:699.002 JLINK_WriteReg(R2, 0x000000FF)
T41B8 000:699.009 - 0.010ms returns 0x00
T41B8 000:699.017 JLINK_WriteReg(R3, 0x00000000)
T41B8 000:699.024 - 0.010ms returns 0x00
T41B8 000:699.032 JLINK_WriteReg(R4, 0x00000000)
T41B8 000:699.039 - 0.010ms returns 0x00
T41B8 000:699.049 JLINK_WriteReg(R5, 0x00000000)
T41B8 000:699.059 - 0.014ms returns 0x00
T41B8 000:699.070 JLINK_WriteReg(R6, 0x00000000)
T41B8 000:699.077 - 0.010ms returns 0x00
T41B8 000:699.085 JLINK_WriteReg(R7, 0x00000000)
T41B8 000:699.097 - 0.017ms returns 0x00
T41B8 000:699.107 JLINK_WriteReg(R8, 0x00000000)
T41B8 000:699.114 - 0.010ms returns 0x00
T41B8 000:699.122 JLINK_WriteReg(R9, 0x20000108)
T41B8 000:699.131 - 0.011ms returns 0x00
T41B8 000:699.139 JLINK_WriteReg(R10, 0x00000000)
T41B8 000:699.146 - 0.010ms returns 0x00
T41B8 000:699.154 JLINK_WriteReg(R11, 0x00000000)
T41B8 000:699.162 - 0.010ms returns 0x00
T41B8 000:699.170 JLINK_WriteReg(R12, 0x00000000)
T41B8 000:699.177 - 0.010ms returns 0x00
T41B8 000:699.185 JLINK_WriteReg(R13 (SP), 0x20002000)
T41B8 000:699.193 - 0.010ms returns 0x00
T41B8 000:699.201 JLINK_WriteReg(R14, 0x20000001)
T41B8 000:699.208 - 0.010ms returns 0x00
T41B8 000:699.216 JLINK_WriteReg(R15 (PC), 0x2000003C)
T41B8 000:699.226 - 0.013ms returns 0x00
T41B8 000:699.234 JLINK_WriteReg(XPSR, 0x01000000)
T41B8 000:699.241 - 0.010ms returns 0x00
T41B8 000:699.250 JLINK_WriteReg(MSP, 0x20002000)
T41B8 000:699.258 - 0.011ms returns 0x00
T41B8 000:699.266 JLINK_WriteReg(PSP, 0x20002000)
T41B8 000:699.273 - 0.010ms returns 0x00
T41B8 000:699.282 JLINK_WriteReg(CFBP, 0x00000000)
T41B8 000:699.288 - 0.010ms returns 0x00
T41B8 000:699.298   JLINK_SetBPEx(Addr = 0x20000000, Type = 0xFFFFFFF2)
T41B8 000:699.308 - 0.014ms returns 0x0000000B
T41B8 000:699.317 JLINK_Go()
T41B8 000:699.331    -- CPU_ReadMem(4 bytes @ 0xE0001000)
T41B8 000:701.766 - 2.465ms
T41B8 000:701.795 JLINK_IsHalted()
T41B8 000:702.213 - 0.434ms returns FALSE
T41B8 000:704.111 JLINK_IsHalted()
T41B8 000:704.516 - 0.416ms returns FALSE
T41B8 000:706.136 JLINK_IsHalted()
T41B8 000:706.585 - 0.466ms returns FALSE
T41B8 000:708.186 JLINK_IsHalted()
T41B8 000:708.604 - 0.429ms returns FALSE
T41B8 000:710.198 JLINK_IsHalted()
T41B8 000:710.662 - 0.479ms returns FALSE
T41B8 000:712.206 JLINK_IsHalted()
T41B8 000:712.668 - 0.481ms returns FALSE
T41B8 000:714.157 JLINK_IsHalted()
T41B8 000:714.469 - 0.332ms returns FALSE
T41B8 000:719.427 JLINK_IsHalted()
T41B8 000:719.765 - 0.350ms returns FALSE
T41B8 000:721.414 JLINK_IsHalted()
T41B8 000:721.836 - 0.440ms returns FALSE
T41B8 000:723.428 JLINK_IsHalted()
T41B8 000:723.789 - 0.372ms returns FALSE
T41B8 000:724.949 JLINK_IsHalted()
T41B8 000:725.424 - 0.496ms returns FALSE
T41B8 000:727.060 JLINK_IsHalted()
T41B8 000:727.506 - 0.465ms returns FALSE
T41B8 000:729.066 JLINK_IsHalted()
T41B8 000:729.504 - 0.460ms returns FALSE
T41B8 000:731.073 JLINK_IsHalted()
T41B8 000:731.536 - 0.489ms returns FALSE
T41B8 000:733.067 JLINK_IsHalted()
T41B8 000:733.503 - 0.455ms returns FALSE
T41B8 000:735.886 JLINK_IsHalted()
T41B8 000:737.933    -- CPU_ReadMem(2 bytes @ 0x20000000)
T41B8 000:738.336 - 2.460ms returns TRUE
T41B8 000:738.354 JLINK_ReadReg(R15 (PC))
T41B8 000:738.364 - 0.013ms returns 0x20000000
T41B8 000:738.372 JLINK_ClrBPEx(BPHandle = 0x0000000B)
T41B8 000:738.378 - 0.009ms returns 0x00
T41B8 000:738.388 JLINK_ReadReg(R0)
T41B8 000:738.401 - 0.015ms returns 0x00000000
T41B8 000:739.174 JLINK_WriteReg(R0, 0x08015000)
T41B8 000:739.192 - 0.023ms returns 0x00
T41B8 000:739.204 JLINK_WriteReg(R1, 0x00001000)
T41B8 000:739.211 - 0.010ms returns 0x00
T41B8 000:739.219 JLINK_WriteReg(R2, 0x000000FF)
T41B8 000:739.225 - 0.009ms returns 0x00
T41B8 000:739.233 JLINK_WriteReg(R3, 0x00000000)
T41B8 000:739.239 - 0.009ms returns 0x00
T41B8 000:739.247 JLINK_WriteReg(R4, 0x00000000)
T41B8 000:739.253 - 0.009ms returns 0x00
T41B8 000:739.261 JLINK_WriteReg(R5, 0x00000000)
T41B8 000:739.267 - 0.009ms returns 0x00
T41B8 000:739.275 JLINK_WriteReg(R6, 0x00000000)
T41B8 000:739.281 - 0.009ms returns 0x00
T41B8 000:739.289 JLINK_WriteReg(R7, 0x00000000)
T41B8 000:739.295 - 0.009ms returns 0x00
T41B8 000:739.303 JLINK_WriteReg(R8, 0x00000000)
T41B8 000:739.309 - 0.009ms returns 0x00
T41B8 000:739.317 JLINK_WriteReg(R9, 0x20000108)
T41B8 000:739.323 - 0.009ms returns 0x00
T41B8 000:739.331 JLINK_WriteReg(R10, 0x00000000)
T41B8 000:739.337 - 0.009ms returns 0x00
T41B8 000:739.345 JLINK_WriteReg(R11, 0x00000000)
T41B8 000:739.352 - 0.012ms returns 0x00
T41B8 000:739.363 JLINK_WriteReg(R12, 0x00000000)
T41B8 000:739.369 - 0.009ms returns 0x00
T41B8 000:739.381 JLINK_WriteReg(R13 (SP), 0x20002000)
T41B8 000:739.397 - 0.023ms returns 0x00
T41B8 000:739.416 JLINK_WriteReg(R14, 0x20000001)
T41B8 000:739.435 - 0.025ms returns 0x00
T41B8 000:739.453 JLINK_WriteReg(R15 (PC), 0x20000020)
T41B8 000:739.468 - 0.020ms returns 0x00
T41B8 000:739.493 JLINK_WriteReg(XPSR, 0x01000000)
T41B8 000:739.513 - 0.028ms returns 0x00
T41B8 000:739.535 JLINK_WriteReg(MSP, 0x20002000)
T41B8 000:739.555 - 0.029ms returns 0x00
T41B8 000:739.579 JLINK_WriteReg(PSP, 0x20002000)
T41B8 000:739.598 - 0.028ms returns 0x00
T41B8 000:739.621 JLINK_WriteReg(CFBP, 0x00000000)
T41B8 000:739.640 - 0.028ms returns 0x00
T41B8 000:739.666   JLINK_SetBPEx(Addr = 0x20000000, Type = 0xFFFFFFF2)
T41B8 000:739.691 - 0.032ms returns 0x0000000C
T41B8 000:739.704 JLINK_Go()
T41B8 000:739.728    -- CPU_ReadMem(4 bytes @ 0xE0001000)
T41B8 000:742.192 - 2.522ms
T41B8 000:742.247 JLINK_IsHalted()
T41B8 000:744.517    -- CPU_ReadMem(2 bytes @ 0x20000000)
T41B8 000:744.972 - 2.741ms returns TRUE
T41B8 000:745.002 JLINK_ReadReg(R15 (PC))
T41B8 000:745.018 - 0.023ms returns 0x20000000
T41B8 000:745.108 JLINK_ClrBPEx(BPHandle = 0x0000000C)
T41B8 000:745.132 - 0.028ms returns 0x00
T41B8 000:745.146 JLINK_ReadReg(R0)
T41B8 000:745.157 - 0.016ms returns 0x00000001
T41B8 000:745.174 JLINK_WriteReg(R0, 0x08015000)
T41B8 000:745.186 - 0.016ms returns 0x00
T41B8 000:745.198 JLINK_WriteReg(R1, 0x00001000)
T41B8 000:745.209 - 0.015ms returns 0x00
T41B8 000:745.221 JLINK_WriteReg(R2, 0x000000FF)
T41B8 000:745.231 - 0.014ms returns 0x00
T41B8 000:745.243 JLINK_WriteReg(R3, 0x00000000)
T41B8 000:745.254 - 0.015ms returns 0x00
T41B8 000:745.266 JLINK_WriteReg(R4, 0x00000000)
T41B8 000:745.276 - 0.015ms returns 0x00
T41B8 000:745.288 JLINK_WriteReg(R5, 0x00000000)
T41B8 000:745.298 - 0.015ms returns 0x00
T41B8 000:745.310 JLINK_WriteReg(R6, 0x00000000)
T41B8 000:745.316 - 0.008ms returns 0x00
T41B8 000:745.323 JLINK_WriteReg(R7, 0x00000000)
T41B8 000:745.329 - 0.008ms returns 0x00
T41B8 000:745.336 JLINK_WriteReg(R8, 0x00000000)
T41B8 000:745.342 - 0.008ms returns 0x00
T41B8 000:745.349 JLINK_WriteReg(R9, 0x20000108)
T41B8 000:745.355 - 0.008ms returns 0x00
T41B8 000:745.362 JLINK_WriteReg(R10, 0x00000000)
T41B8 000:745.368 - 0.008ms returns 0x00
T41B8 000:745.375 JLINK_WriteReg(R11, 0x00000000)
T41B8 000:745.381 - 0.008ms returns 0x00
T41B8 000:745.388 JLINK_WriteReg(R12, 0x00000000)
T41B8 000:745.394 - 0.008ms returns 0x00
T41B8 000:745.401 JLINK_WriteReg(R13 (SP), 0x20002000)
T41B8 000:745.408 - 0.009ms returns 0x00
T41B8 000:745.415 JLINK_WriteReg(R14, 0x20000001)
T41B8 000:745.421 - 0.008ms returns 0x00
T41B8 000:745.428 JLINK_WriteReg(R15 (PC), 0x2000003C)
T41B8 000:745.434 - 0.009ms returns 0x00
T41B8 000:745.442 JLINK_WriteReg(XPSR, 0x01000000)
T41B8 000:745.448 - 0.008ms returns 0x00
T41B8 000:745.455 JLINK_WriteReg(MSP, 0x20002000)
T41B8 000:745.460 - 0.008ms returns 0x00
T41B8 000:745.468 JLINK_WriteReg(PSP, 0x20002000)
T41B8 000:745.474 - 0.008ms returns 0x00
T41B8 000:745.481 JLINK_WriteReg(CFBP, 0x00000000)
T41B8 000:745.487 - 0.008ms returns 0x00
T41B8 000:745.495   JLINK_SetBPEx(Addr = 0x20000000, Type = 0xFFFFFFF2)
T41B8 000:745.504 - 0.012ms returns 0x0000000D
T41B8 000:745.511 JLINK_Go()
T41B8 000:745.524    -- CPU_ReadMem(4 bytes @ 0xE0001000)
T41B8 000:747.767 - 2.281ms
T41B8 000:747.809 JLINK_IsHalted()
T41B8 000:748.243 - 0.456ms returns FALSE
T41B8 000:751.887 JLINK_IsHalted()
T41B8 000:752.352 - 0.486ms returns FALSE
T41B8 000:753.920 JLINK_IsHalted()
T41B8 000:754.412 - 0.516ms returns FALSE
T41B8 000:756.594 JLINK_IsHalted()
T41B8 000:756.988 - 0.410ms returns FALSE
T41B8 000:759.193 JLINK_IsHalted()
T41B8 000:759.674 - 0.491ms returns FALSE
T41B8 000:765.766 JLINK_IsHalted()
T41B8 000:766.162 - 0.412ms returns FALSE
T41B8 000:767.940 JLINK_IsHalted()
T41B8 000:768.372 - 0.458ms returns FALSE
T41B8 000:770.527 JLINK_IsHalted()
T41B8 000:770.912 - 0.404ms returns FALSE
T41B8 000:772.601 JLINK_IsHalted()
T41B8 000:772.962 - 0.386ms returns FALSE
T41B8 000:774.599 JLINK_IsHalted()
T41B8 000:775.251 - 0.683ms returns FALSE
T41B8 000:777.237 JLINK_IsHalted()
T41B8 000:777.648 - 0.422ms returns FALSE
T41B8 000:779.708 JLINK_IsHalted()
T41B8 000:780.136 - 0.446ms returns FALSE
T41B8 000:781.715 JLINK_IsHalted()
T41B8 000:783.814    -- CPU_ReadMem(2 bytes @ 0x20000000)
T41B8 000:784.262 - 2.570ms returns TRUE
T41B8 000:784.304 JLINK_ReadReg(R15 (PC))
T41B8 000:784.329 - 0.033ms returns 0x20000000
T41B8 000:784.353 JLINK_ClrBPEx(BPHandle = 0x0000000D)
T41B8 000:784.370 - 0.024ms returns 0x00
T41B8 000:784.390 JLINK_ReadReg(R0)
T41B8 000:784.405 - 0.023ms returns 0x00000000
T41B8 000:785.587 JLINK_WriteReg(R0, 0x08016000)
T41B8 000:785.611 - 0.028ms returns 0x00
T41B8 000:785.623 JLINK_WriteReg(R1, 0x00001000)
T41B8 000:785.633 - 0.017ms returns 0x00
T41B8 000:785.647 JLINK_WriteReg(R2, 0x000000FF)
T41B8 000:785.668 - 0.028ms returns 0x00
T41B8 000:785.686 JLINK_WriteReg(R3, 0x00000000)
T41B8 000:785.701 - 0.020ms returns 0x00
T41B8 000:785.715 JLINK_WriteReg(R4, 0x00000000)
T41B8 000:785.727 - 0.017ms returns 0x00
T41B8 000:785.741 JLINK_WriteReg(R5, 0x00000000)
T41B8 000:785.753 - 0.017ms returns 0x00
T41B8 000:785.768 JLINK_WriteReg(R6, 0x00000000)
T41B8 000:785.779 - 0.017ms returns 0x00
T41B8 000:785.793 JLINK_WriteReg(R7, 0x00000000)
T41B8 000:785.805 - 0.017ms returns 0x00
T41B8 000:785.819 JLINK_WriteReg(R8, 0x00000000)
T41B8 000:785.831 - 0.017ms returns 0x00
T41B8 000:785.844 JLINK_WriteReg(R9, 0x20000108)
T41B8 000:785.849 - 0.007ms returns 0x00
T41B8 000:785.855 JLINK_WriteReg(R10, 0x00000000)
T41B8 000:785.860 - 0.007ms returns 0x00
T41B8 000:785.866 JLINK_WriteReg(R11, 0x00000000)
T41B8 000:785.870 - 0.007ms returns 0x00
